Time: 0 | AWVALID: 0 | AWREADY: 0 | WVALID: 0 | WREADY: 0 | BVALID: 0 | ARVALID: 0 | ARREADY: 0 | RVALID: 0 | RREADY: 1
Starting AXI4-Full Slave Testbench

=== Test 1: Single Write Transaction ===
Writing 0xdeadbeef to address 0x00010000
Time: 205000 | AWVALID: 1 | AWREADY: 0 | WVALID: 1 | WREADY: 0 | BVALID: 0 | ARVALID: 0 | ARREADY: 0 | RVALID: 0 | RREADY: 1
Time: 205000 | AWVALID: 1 | AWREADY: 1 | WVALID: 1 | WREADY: 0 | BVALID: 0 | ARVALID: 0 | ARREADY: 0 | RVALID: 0 | RREADY: 1
Time: 215000 | AWVALID: 0 | AWREADY: 1 | WVALID: 1 | WREADY: 0 | BVALID: 0 | ARVALID: 0 | ARREADY: 0 | RVALID: 0 | RREADY: 1
Time: 215000 | AWVALID: 0 | AWREADY: 0 | WVALID: 1 | WREADY: 1 | BVALID: 0 | ARVALID: 0 | ARREADY: 0 | RVALID: 0 | RREADY: 1
Time: 225000 | AWVALID: 0 | AWREADY: 0 | WVALID: 1 | WREADY: 0 | BVALID: 1 | ARVALID: 0 | ARREADY: 0 | RVALID: 0 | RREADY: 1
Write completed with response: 10

=== Test 2: Single Read Transaction ===
Reading from address 0x00010000, expecting 0xdeadbeef
Time: 235000 | AWVALID: 0 | AWREADY: 0 | WVALID: 1 | WREADY: 0 | BVALID: 0 | ARVALID: 0 | ARREADY: 0 | RVALID: 0 | RREADY: 1
Time: 245000 | AWVALID: 0 | AWREADY: 0 | WVALID: 1 | WREADY: 0 | BVALID: 0 | ARVALID: 1 | ARREADY: 0 | RVALID: 0 | RREADY: 1
Time: 245000 | AWVALID: 0 | AWREADY: 0 | WVALID: 1 | WREADY: 0 | BVALID: 0 | ARVALID: 1 | ARREADY: 1 | RVALID: 0 | RREADY: 1
Time: 255000 | AWVALID: 0 | AWREADY: 0 | WVALID: 1 | WREADY: 0 | BVALID: 0 | ARVALID: 0 | ARREADY: 1 | RVALID: 0 | RREADY: 1
Time: 255000 | AWVALID: 0 | AWREADY: 0 | WVALID: 1 | WREADY: 0 | BVALID: 0 | ARVALID: 0 | ARREADY: 0 | RVALID: 1 | RREADY: 1
Read successful: Got 0xdeadbeef

=== Test 3: Burst Write Transaction (Incremental) ===
Burst write:          5 transfers starting at 0x00010000
Time: 265000 | AWVALID: 0 | AWREADY: 0 | WVALID: 1 | WREADY: 0 | BVALID: 0 | ARVALID: 0 | ARREADY: 0 | RVALID: 0 | RREADY: 1
Time: 275000 | AWVALID: 1 | AWREADY: 0 | WVALID: 1 | WREADY: 0 | BVALID: 0 | ARVALID: 0 | ARREADY: 0 | RVALID: 0 | RREADY: 1
Time: 275000 | AWVALID: 1 | AWREADY: 1 | WVALID: 1 | WREADY: 0 | BVALID: 0 | ARVALID: 0 | ARREADY: 0 | RVALID: 0 | RREADY: 1
Time: 285000 | AWVALID: 0 | AWREADY: 1 | WVALID: 1 | WREADY: 0 | BVALID: 0 | ARVALID: 0 | ARREADY: 0 | RVALID: 0 | RREADY: 1
Time: 285000 | AWVALID: 0 | AWREADY: 0 | WVALID: 1 | WREADY: 1 | BVALID: 0 | ARVALID: 0 | ARREADY: 0 | RVALID: 0 | RREADY: 1
  Beat           0: Writing 0x00001000
  Beat           1: Writing 0x00001001
  Beat           2: Writing 0x00001002
  Beat           3: Writing 0x00001003
  Beat           4: Writing 0x00001004
Time: 335000 | AWVALID: 0 | AWREADY: 0 | WVALID: 1 | WREADY: 0 | BVALID: 1 | ARVALID: 0 | ARREADY: 0 | RVALID: 0 | RREADY: 1
Time: 345000 | AWVALID: 0 | AWREADY: 0 | WVALID: 0 | WREADY: 0 | BVALID: 1 | ARVALID: 0 | ARREADY: 0 | RVALID: 0 | RREADY: 1
Time: 345000 | AWVALID: 0 | AWREADY: 0 | WVALID: 0 | WREADY: 0 | BVALID: 0 | ARVALID: 0 | ARREADY: 0 | RVALID: 0 | RREADY: 1
Burst write completed
Reading from address 0x00010000, expecting 0x00001000
Time: 365000 | AWVALID: 0 | AWREADY: 0 | WVALID: 0 | WREADY: 0 | BVALID: 0 | ARVALID: 1 | ARREADY: 0 | RVALID: 0 | RREADY: 1
Time: 365000 | AWVALID: 0 | AWREADY: 0 | WVALID: 0 | WREADY: 0 | BVALID: 0 | ARVALID: 1 | ARREADY: 1 | RVALID: 0 | RREADY: 1
Time: 375000 | AWVALID: 0 | AWREADY: 0 | WVALID: 0 | WREADY: 0 | BVALID: 0 | ARVALID: 0 | ARREADY: 1 | RVALID: 0 | RREADY: 1
Time: 375000 | AWVALID: 0 | AWREADY: 0 | WVALID: 0 | WREADY: 0 | BVALID: 0 | ARVALID: 0 | ARREADY: 0 | RVALID: 1 | RREADY: 1
Read successful: Got 0x00001000
Reading from address 0x00010004, expecting 0x00001001
Time: 385000 | AWVALID: 0 | AWREADY: 0 | WVALID: 0 | WREADY: 0 | BVALID: 0 | ARVALID: 0 | ARREADY: 0 | RVALID: 0 | RREADY: 1
Time: 395000 | AWVALID: 0 | AWREADY: 0 | WVALID: 0 | WREADY: 0 | BVALID: 0 | ARVALID: 1 | ARREADY: 0 | RVALID: 0 | RREADY: 1
Time: 395000 | AWVALID: 0 | AWREADY: 0 | WVALID: 0 | WREADY: 0 | BVALID: 0 | ARVALID: 1 | ARREADY: 1 | RVALID: 0 | RREADY: 1
Time: 405000 | AWVALID: 0 | AWREADY: 0 | WVALID: 0 | WREADY: 0 | BVALID: 0 | ARVALID: 0 | ARREADY: 1 | RVALID: 0 | RREADY: 1
Time: 405000 | AWVALID: 0 | AWREADY: 0 | WVALID: 0 | WREADY: 0 | BVALID: 0 | ARVALID: 0 | ARREADY: 0 | RVALID: 1 | RREADY: 1
Read successful: Got 0x00001001
Reading from address 0x00010008, expecting 0x00001002
Time: 415000 | AWVALID: 0 | AWREADY: 0 | WVALID: 0 | WREADY: 0 | BVALID: 0 | ARVALID: 0 | ARREADY: 0 | RVALID: 0 | RREADY: 1
Time: 425000 | AWVALID: 0 | AWREADY: 0 | WVALID: 0 | WREADY: 0 | BVALID: 0 | ARVALID: 1 | ARREADY: 0 | RVALID: 0 | RREADY: 1
Time: 425000 | AWVALID: 0 | AWREADY: 0 | WVALID: 0 | WREADY: 0 | BVALID: 0 | ARVALID: 1 | ARREADY: 1 | RVALID: 0 | RREADY: 1
Time: 435000 | AWVALID: 0 | AWREADY: 0 | WVALID: 0 | WREADY: 0 | BVALID: 0 | ARVALID: 0 | ARREADY: 1 | RVALID: 0 | RREADY: 1
Time: 435000 | AWVALID: 0 | AWREADY: 0 | WVALID: 0 | WREADY: 0 | BVALID: 0 | ARVALID: 0 | ARREADY: 0 | RVALID: 1 | RREADY: 1
Read successful: Got 0x00001002
Reading from address 0x0001000c, expecting 0x00001003
Time: 445000 | AWVALID: 0 | AWREADY: 0 | WVALID: 0 | WREADY: 0 | BVALID: 0 | ARVALID: 0 | ARREADY: 0 | RVALID: 0 | RREADY: 1
Time: 455000 | AWVALID: 0 | AWREADY: 0 | WVALID: 0 | WREADY: 0 | BVALID: 0 | ARVALID: 1 | ARREADY: 0 | RVALID: 0 | RREADY: 1
Time: 455000 | AWVALID: 0 | AWREADY: 0 | WVALID: 0 | WREADY: 0 | BVALID: 0 | ARVALID: 1 | ARREADY: 1 | RVALID: 0 | RREADY: 1
Time: 465000 | AWVALID: 0 | AWREADY: 0 | WVALID: 0 | WREADY: 0 | BVALID: 0 | ARVALID: 0 | ARREADY: 1 | RVALID: 0 | RREADY: 1
Time: 465000 | AWVALID: 0 | AWREADY: 0 | WVALID: 0 | WREADY: 0 | BVALID: 0 | ARVALID: 0 | ARREADY: 0 | RVALID: 1 | RREADY: 1
Read successful: Got 0x00001003

=== Test 4: Burst Read Transaction (Incremental) ===
Burst read:          5 transfers starting at 0x00010000
Time: 475000 | AWVALID: 0 | AWREADY: 0 | WVALID: 0 | WREADY: 0 | BVALID: 0 | ARVALID: 0 | ARREADY: 0 | RVALID: 0 | RREADY: 1
Time: 485000 | AWVALID: 0 | AWREADY: 0 | WVALID: 0 | WREADY: 0 | BVALID: 0 | ARVALID: 1 | ARREADY: 0 | RVALID: 0 | RREADY: 1
Time: 485000 | AWVALID: 0 | AWREADY: 0 | WVALID: 0 | WREADY: 0 | BVALID: 0 | ARVALID: 1 | ARREADY: 1 | RVALID: 0 | RREADY: 1
Time: 495000 | AWVALID: 0 | AWREADY: 0 | WVALID: 0 | WREADY: 0 | BVALID: 0 | ARVALID: 0 | ARREADY: 1 | RVALID: 0 | RREADY: 1
Time: 495000 | AWVALID: 0 | AWREADY: 0 | WVALID: 0 | WREADY: 0 | BVALID: 0 | ARVALID: 0 | ARREADY: 0 | RVALID: 1 | RREADY: 1
  Beat           0: Read 0x00001000, RLAST=0
Time: 505000 | AWVALID: 0 | AWREADY: 0 | WVALID: 0 | WREADY: 0 | BVALID: 0 | ARVALID: 0 | ARREADY: 0 | RVALID: 0 | RREADY: 1
Time: 515000 | AWVALID: 0 | AWREADY: 0 | WVALID: 0 | WREADY: 0 | BVALID: 0 | ARVALID: 0 | ARREADY: 0 | RVALID: 1 | RREADY: 1
  Beat           1: Read 0x00001001, RLAST=0
Time: 525000 | AWVALID: 0 | AWREADY: 0 | WVALID: 0 | WREADY: 0 | BVALID: 0 | ARVALID: 0 | ARREADY: 0 | RVALID: 0 | RREADY: 1
Time: 535000 | AWVALID: 0 | AWREADY: 0 | WVALID: 0 | WREADY: 0 | BVALID: 0 | ARVALID: 0 | ARREADY: 0 | RVALID: 1 | RREADY: 1
  Beat           2: Read 0x00001002, RLAST=0
Time: 545000 | AWVALID: 0 | AWREADY: 0 | WVALID: 0 | WREADY: 0 | BVALID: 0 | ARVALID: 0 | ARREADY: 0 | RVALID: 0 | RREADY: 1
Time: 555000 | AWVALID: 0 | AWREADY: 0 | WVALID: 0 | WREADY: 0 | BVALID: 0 | ARVALID: 0 | ARREADY: 0 | RVALID: 1 | RREADY: 1
  Beat           3: Read 0x00001003, RLAST=0
Time: 565000 | AWVALID: 0 | AWREADY: 0 | WVALID: 0 | WREADY: 0 | BVALID: 0 | ARVALID: 0 | ARREADY: 0 | RVALID: 0 | RREADY: 1
Time: 575000 | AWVALID: 0 | AWREADY: 0 | WVALID: 0 | WREADY: 0 | BVALID: 0 | ARVALID: 0 | ARREADY: 0 | RVALID: 1 | RREADY: 1
  Beat           4: Read 0x00001004, RLAST=1
Time: 585000 | AWVALID: 0 | AWREADY: 0 | WVALID: 0 | WREADY: 0 | BVALID: 0 | ARVALID: 0 | ARREADY: 0 | RVALID: 0 | RREADY: 1
Burst read completed

=== Test 5: Fixed Burst Write ===
Fixed burst write:          4 transfers to address 0x00010010
Time: 615000 | AWVALID: 1 | AWREADY: 0 | WVALID: 0 | WREADY: 0 | BVALID: 0 | ARVALID: 0 | ARREADY: 0 | RVALID: 0 | RREADY: 1
Time: 615000 | AWVALID: 1 | AWREADY: 1 | WVALID: 0 | WREADY: 0 | BVALID: 0 | ARVALID: 0 | ARREADY: 0 | RVALID: 0 | RREADY: 1
Time: 625000 | AWVALID: 0 | AWREADY: 1 | WVALID: 0 | WREADY: 0 | BVALID: 0 | ARVALID: 0 | ARREADY: 0 | RVALID: 0 | RREADY: 1
Time: 625000 | AWVALID: 0 | AWREADY: 0 | WVALID: 0 | WREADY: 0 | BVALID: 0 | ARVALID: 0 | ARREADY: 0 | RVALID: 0 | RREADY: 1
Time: 635000 | AWVALID: 0 | AWREADY: 0 | WVALID: 1 | WREADY: 0 | BVALID: 0 | ARVALID: 0 | ARREADY: 0 | RVALID: 0 | RREADY: 1
  Beat           0: Writing 0x00002000 to fixed address
Time: 635000 | AWVALID: 0 | AWREADY: 0 | WVALID: 1 | WREADY: 1 | BVALID: 0 | ARVALID: 0 | ARREADY: 0 | RVALID: 0 | RREADY: 1
  Beat           1: Writing 0x00002001 to fixed address
  Beat           2: Writing 0x00002002 to fixed address
  Beat           3: Writing 0x00002003 to fixed address
Time: 665000 | AWVALID: 0 | AWREADY: 0 | WVALID: 1 | WREADY: 0 | BVALID: 1 | ARVALID: 0 | ARREADY: 0 | RVALID: 0 | RREADY: 1
Time: 675000 | AWVALID: 0 | AWREADY: 0 | WVALID: 0 | WREADY: 0 | BVALID: 1 | ARVALID: 0 | ARREADY: 0 | RVALID: 0 | RREADY: 1
Time: 675000 | AWVALID: 0 | AWREADY: 0 | WVALID: 0 | WREADY: 0 | BVALID: 0 | ARVALID: 0 | ARREADY: 0 | RVALID: 0 | RREADY: 1
Fixed burst write completed
Reading from address 0x00010010, expecting 0x00002003
Time: 695000 | AWVALID: 0 | AWREADY: 0 | WVALID: 0 | WREADY: 0 | BVALID: 0 | ARVALID: 1 | ARREADY: 0 | RVALID: 0 | RREADY: 1
Time: 695000 | AWVALID: 0 | AWREADY: 0 | WVALID: 0 | WREADY: 0 | BVALID: 0 | ARVALID: 1 | ARREADY: 1 | RVALID: 0 | RREADY: 1
Time: 705000 | AWVALID: 0 | AWREADY: 0 | WVALID: 0 | WREADY: 0 | BVALID: 0 | ARVALID: 0 | ARREADY: 1 | RVALID: 0 | RREADY: 1
Time: 705000 | AWVALID: 0 | AWREADY: 0 | WVALID: 0 | WREADY: 0 | BVALID: 0 | ARVALID: 0 | ARREADY: 0 | RVALID: 1 | RREADY: 1
Read successful: Got 0x00002003

=== Test 6: Fixed Burst Read ===
Fixed burst read:          4 transfers from address 0x00010010
Time: 715000 | AWVALID: 0 | AWREADY: 0 | WVALID: 0 | WREADY: 0 | BVALID: 0 | ARVALID: 0 | ARREADY: 0 | RVALID: 0 | RREADY: 1
Time: 725000 | AWVALID: 0 | AWREADY: 0 | WVALID: 0 | WREADY: 0 | BVALID: 0 | ARVALID: 1 | ARREADY: 0 | RVALID: 0 | RREADY: 1
Time: 725000 | AWVALID: 0 | AWREADY: 0 | WVALID: 0 | WREADY: 0 | BVALID: 0 | ARVALID: 1 | ARREADY: 1 | RVALID: 0 | RREADY: 1
Time: 735000 | AWVALID: 0 | AWREADY: 0 | WVALID: 0 | WREADY: 0 | BVALID: 0 | ARVALID: 0 | ARREADY: 1 | RVALID: 0 | RREADY: 1
Time: 735000 | AWVALID: 0 | AWREADY: 0 | WVALID: 0 | WREADY: 0 | BVALID: 0 | ARVALID: 0 | ARREADY: 0 | RVALID: 1 | RREADY: 1
  Beat           0: Read 0x00002003 from fixed address, RLAST=0
Time: 745000 | AWVALID: 0 | AWREADY: 0 | WVALID: 0 | WREADY: 0 | BVALID: 0 | ARVALID: 0 | ARREADY: 0 | RVALID: 0 | RREADY: 1
Time: 755000 | AWVALID: 0 | AWREADY: 0 | WVALID: 0 | WREADY: 0 | BVALID: 0 | ARVALID: 0 | ARREADY: 0 | RVALID: 1 | RREADY: 1
  Beat           1: Read 0x00002003 from fixed address, RLAST=0
Time: 765000 | AWVALID: 0 | AWREADY: 0 | WVALID: 0 | WREADY: 0 | BVALID: 0 | ARVALID: 0 | ARREADY: 0 | RVALID: 0 | RREADY: 1
Time: 775000 | AWVALID: 0 | AWREADY: 0 | WVALID: 0 | WREADY: 0 | BVALID: 0 | ARVALID: 0 | ARREADY: 0 | RVALID: 1 | RREADY: 1
  Beat           2: Read 0x00002003 from fixed address, RLAST=0
Time: 785000 | AWVALID: 0 | AWREADY: 0 | WVALID: 0 | WREADY: 0 | BVALID: 0 | ARVALID: 0 | ARREADY: 0 | RVALID: 0 | RREADY: 1
Time: 795000 | AWVALID: 0 | AWREADY: 0 | WVALID: 0 | WREADY: 0 | BVALID: 0 | ARVALID: 0 | ARREADY: 0 | RVALID: 1 | RREADY: 1
  Beat           3: Read 0x00002003 from fixed address, RLAST=1
Time: 805000 | AWVALID: 0 | AWREADY: 0 | WVALID: 0 | WREADY: 0 | BVALID: 0 | ARVALID: 0 | ARREADY: 0 | RVALID: 0 | RREADY: 1
Fixed burst read completed

=== All Tests Completed ===
- tb_axifull_slave_ram.sv:212: Verilog $finish
- S i m u l a t i o n   R e p o r t: Verilator 5.038 2025-07-08
- Verilator: $finish at 2us; walltime 0.000 s; speed 4.598 ms/s
- Verilator: cpu 0.000 s on 1 threads; alloced 0 MB
